
T4C78 000:049 SEGGER J-Link V6.12c Log File (0001ms, 0021ms total)
T4C78 000:049 DLL Compiled: Dec 16 2016 17:24:18 (0001ms, 0021ms total)
T4C78 000:049 Logging started @ 2026-02-10 00:24 (0001ms, 0021ms total)
T4C78 000:050 JLINK_SetWarnOutHandler(...) (0000ms, 0021ms total)
T4C78 000:050 JLINK_OpenEx(...)
Firmware: J-Link ARM-OB STM32 compiled Aug 22 2012 19:52:04
Hardware: V7.00
S/N: 20090928
Feature(s): RDI,FlashDL,FlashBP,JFlash,GDBFullWEBSRV Webserver running on local port 19080 (0010ms, 0031ms total)
T4C78 000:050   returns O.K. (0010ms, 0031ms total)
T4C78 000:060 JLINK_SetErrorOutHandler(...) (0000ms, 0031ms total)
T4C78 000:060 JLINK_ExecCommand("ProjectFile = "D:\stmprogram\C_Flymini1\MDK-ARM\JLinkSettings.ini"", ...). C:\Program Files (x86)\SEGGER\JLink_V612c\JLinkDevices.xml evaluated successfully.  returns 0x00 (0048ms, 0079ms total)
T4C78 000:116 JLINK_ExecCommand("Device = STM32F103C8", ...). Device "STM32F103C8" selected.  returns 0x00 (0005ms, 0084ms total)
T4C78 000:121 JLINK_ExecCommand("DisableConnectionTimeout", ...).   returns 0x01 (0000ms, 0084ms total)
T4C78 000:121 JLINK_GetHardwareVersion()  returns 0x11170 (0000ms, 0084ms total)
T4C78 000:121 JLINK_GetDLLVersion()  returns 61203 (0000ms, 0084ms total)
T4C78 000:121 JLINK_GetFirmwareString(...) (0000ms, 0084ms total)
T4C78 000:132 JLINK_GetDLLVersion()  returns 61203 (0000ms, 0084ms total)
T4C78 000:132 JLINK_GetCompileDateTime() (0000ms, 0084ms total)
T4C78 000:136 JLINK_GetFirmwareString(...) (0000ms, 0084ms total)
T4C78 000:139 JLINK_GetHardwareVersion()  returns 0x11170 (0000ms, 0084ms total)
T4C78 000:155 JLINK_TIF_Select(JLINKARM_TIF_SWD)  returns 0x00 (0001ms, 0085ms total)
T4C78 000:156 JLINK_SetSpeed(50000) (0000ms, 0085ms total)
T4C78 000:156 JLINK_GetId() >0x108 TIF>Found SWD-DP with ID 0x2BA01477 >0x0D TIF> >0x28 TIF> >0x0D TIF> >0x28 TIF> >0x0D TIF> >0x28 TIF> >0x0D TIF> >0x28 TIF> >0x0D TIF> >0x21 TIF> >0x0D TIF> >0x28 TIF> >0x0D TIF> >0x28 TIF> >0x0D TIF> >0x28 TIF> >0x0D TIF> >0x21 TIF> >0x0D TIF> >0x21 TIF> >0x0D TIF> >0x28 TIF> >0x0D TIF> >0x21 TIF> >0x0D TIF> >0x21 TIF> >0x0D TIF> >0x28 TIF> >0x0D TIF> >0x28 TIF> >0x0D TIF> >0x28 TIF> >0x0D TIF> >0x21 TIF> >0x0D TIF> >0x21 TIF> >0x0D TIF> >0x28 TIF> >0x0D TIF>
 >0x21 TIF> >0x0D TIF> >0x21 TIF> >0x0D TIF> >0x28 TIF> >0x0D TIF> >0x21 TIF> >0x0D TIF> >0x21 TIF> >0x0D TIF> >0x28 TIF> >0x0D TIF> >0x21 TIF> >0x0D TIF> >0x21 TIF> >0x0D TIF> >0x28 TIF> >0x0D TIF> >0x21 TIF> >0x0D TIF> >0x21 TIF> >0x108 TIF>Found SWD-DP with ID 0x2BA01477 >0x0D TIF> >0x28 TIF> >0x0D TIF> >0x28 TIF> >0x0D TIF> >0x28 TIF> >0x0D TIF> >0x28 TIF> >0x0D TIF> >0x21 TIF> >0x0D TIF> >0x28 TIF> >0x0D TIF> >0x28 TIF> >0x0D TIF> >0x21 TIF> >0x0D TIF> >0x21 TIF> >0x0D TIF> >0x21 TIF>
AP-IDR: 0x24770011, Type: AHB-APAHB-AP ROM: 0xE00FF000 (Base addr. of first ROM table) >0x0D TIF> >0x28 TIF> >0x0D TIF> >0x28 TIF> >0x0D TIF> >0x28 TIF> >0x0D TIF> >0x21 TIF> >0x0D TIF> >0x21 TIF> >0x0D TIF> >0x28 TIF> >0x0D TIF> >0x21 TIF> >0x0D TIF> >0x21 TIF>Found Cortex-M3 r2p1, Little endian. -- CPU_ReadMem(4 bytes @ 0xE000EDF0) -- CPU_WriteMem(4 bytes @ 0xE000EDF0) -- CPU_ReadMem(4 bytes @ 0xE0002000)FPUnit: 6 code (BP) slots and 2 literal slots -- CPU_ReadMem(4 bytes @ 0xE000EDFC)
 -- CPU_WriteMem(4 bytes @ 0xE000EDFC) -- CPU_ReadMem(4 bytes @ 0xE0001000) -- CPU_WriteMem(4 bytes @ 0xE0001000) -- CPU_ReadMem(4 bytes @ 0xE000ED88) -- CPU_WriteMem(4 bytes @ 0xE000ED88) -- CPU_ReadMem(4 bytes @ 0xE000ED88) -- CPU_WriteMem(4 bytes @ 0xE000ED88)CoreSight components:ROMTbl 0 @ E00FF000 -- CPU_ReadMem(16 bytes @ 0xE00FF000) -- CPU_ReadMem(16 bytes @ 0xE000EFF0) -- CPU_ReadMem(16 bytes @ 0xE000EFE0)ROMTbl 0 [0]: FFF0F000, CID: B105E00D, PID: 000BB000 SCS
 -- CPU_ReadMem(16 bytes @ 0xE0001FF0) -- CPU_ReadMem(16 bytes @ 0xE0001FE0)ROMTbl 0 [1]: FFF02000, CID: B105E00D, PID: 003BB002 DWT -- CPU_ReadMem(16 bytes @ 0xE0002FF0) -- CPU_ReadMem(16 bytes @ 0xE0002FE0)ROMTbl 0 [2]: FFF03000, CID: B105E00D, PID: 002BB003 FPB -- CPU_ReadMem(16 bytes @ 0xE0000FF0) -- CPU_ReadMem(16 bytes @ 0xE0000FE0)ROMTbl 0 [3]: FFF01000, CID: B105E00D, PID: 003BB001 ITM -- CPU_ReadMem(16 bytes @ 0xE00FF010) -- CPU_ReadMem(16 bytes @ 0xE0040FF0)
 -- CPU_ReadMem(16 bytes @ 0xE0040FE0)ROMTbl 0 [4]: FFF41000, CID: B105900D, PID: 003BB923 TPIU-Lite >0x0D TIF> >0x21 TIF>  returns 0x2BA01477 (0106ms, 0191ms total)
T4C78 000:262 JLINK_GetDLLVersion()  returns 61203 (0000ms, 0191ms total)
T4C78 000:262 JLINK_CORE_GetFound()  returns 0x30000FF (0000ms, 0191ms total)
T4C78 000:262 JLINK_GetDebugInfo(0x100) -- Value=0xE00FF000  returns 0x00 (0000ms, 0191ms total)
T4C78 000:267 JLINK_ReadMem (0xE00FF000, 0x0020 Bytes, ...) -- CPU is running -- CPU_ReadMem(32 bytes @ 0xE00FF000) - Data: 03 F0 F0 FF 03 20 F0 FF 03 30 F0 FF 03 10 F0 FF ...  returns 0x00 (0001ms, 0192ms total)
T4C78 000:268 JLINK_ReadMem (0xE000EFF0, 0x0010 Bytes, ...) -- CPU is running -- CPU_ReadMem(16 bytes @ 0xE000EFF0) - Data: 0D 00 00 00 E0 00 00 00 05 00 00 00 B1 00 00 00  returns 0x00 (0001ms, 0193ms total)
T4C78 000:269 JLINK_ReadMem (0xE000EFD0, 0x0020 Bytes, ...) -- CPU is running -- CPU_ReadMem(32 bytes @ 0xE000EFD0) - Data: 04 00 00 00 00 00 00 00 00 00 00 00 00 00 00 00 ...  returns 0x00 (0000ms, 0193ms total)
T4C78 000:269 JLINK_ReadMem (0xE0001FF0, 0x0010 Bytes, ...) -- CPU is running -- CPU_ReadMem(16 bytes @ 0xE0001FF0) - Data: 0D 00 00 00 E0 00 00 00 05 00 00 00 B1 00 00 00  returns 0x00 (0001ms, 0194ms total)
T4C78 000:270 JLINK_ReadMem (0xE0001FD0, 0x0020 Bytes, ...) -- CPU is running -- CPU_ReadMem(32 bytes @ 0xE0001FD0) - Data: 04 00 00 00 00 00 00 00 00 00 00 00 00 00 00 00 ...  returns 0x00 (0001ms, 0195ms total)
T4C78 000:271 JLINK_ReadMem (0xE0002FF0, 0x0010 Bytes, ...) -- CPU is running -- CPU_ReadMem(16 bytes @ 0xE0002FF0) - Data: 0D 00 00 00 E0 00 00 00 05 00 00 00 B1 00 00 00  returns 0x00 (0001ms, 0196ms total)
T4C78 000:272 JLINK_ReadMem (0xE0002FD0, 0x0020 Bytes, ...) -- CPU is running -- CPU_ReadMem(32 bytes @ 0xE0002FD0) - Data: 04 00 00 00 00 00 00 00 00 00 00 00 00 00 00 00 ...  returns 0x00 (0001ms, 0197ms total)
T4C78 000:273 JLINK_ReadMem (0xE0000FF0, 0x0010 Bytes, ...) -- CPU is running -- CPU_ReadMem(16 bytes @ 0xE0000FF0) - Data: 0D 00 00 00 E0 00 00 00 05 00 00 00 B1 00 00 00  returns 0x00 (0000ms, 0197ms total)
T4C78 000:273 JLINK_ReadMem (0xE0000FD0, 0x0020 Bytes, ...) -- CPU is running -- CPU_ReadMem(32 bytes @ 0xE0000FD0) - Data: 04 00 00 00 00 00 00 00 00 00 00 00 00 00 00 00 ...  returns 0x00 (0001ms, 0198ms total)
T4C78 000:274 JLINK_ReadMem (0xE0040FF0, 0x0010 Bytes, ...) -- CPU is running -- CPU_ReadMem(16 bytes @ 0xE0040FF0) - Data: 0D 00 00 00 90 00 00 00 05 00 00 00 B1 00 00 00  returns 0x00 (0001ms, 0199ms total)
T4C78 000:275 JLINK_ReadMem (0xE0040FD0, 0x0020 Bytes, ...) -- CPU is running -- CPU_ReadMem(32 bytes @ 0xE0040FD0) - Data: 04 00 00 00 00 00 00 00 00 00 00 00 00 00 00 00 ...  returns 0x00 (0000ms, 0199ms total)
T4C78 000:275 JLINK_ReadMemU32(0xE000ED00, 0x0001 Items, ...) -- CPU is running -- CPU_ReadMem(4 bytes @ 0xE000ED00) - Data: 31 C2 2F 41  returns 0x01 (0001ms, 0200ms total)
T4C78 000:276 JLINK_SetResetType(JLINKARM_CM3_RESET_TYPE_NORMAL)  returns JLINKARM_CM3_RESET_TYPE_NORMAL (0000ms, 0200ms total)
T4C78 000:276 JLINK_Reset() -- CPU is running -- CPU_WriteMem(4 bytes @ 0xE000EDF0) -- CPU is running -- CPU_WriteMem(4 bytes @ 0xE000EDFC) >0x35 TIF> -- CPU is running -- CPU_WriteMem(4 bytes @ 0xE000ED0C) -- CPU is running -- CPU_ReadMem(4 bytes @ 0xE000EDF0) -- CPU is running -- CPU_ReadMem(4 bytes @ 0xE000EDF0) -- CPU is running -- CPU_WriteMem(4 bytes @ 0xE000EDF0) -- CPU is running -- CPU_WriteMem(4 bytes @ 0xE000EDFC) -- CPU is running -- CPU_ReadMem(4 bytes @ 0xE000EDF0)
 -- CPU_WriteMem(4 bytes @ 0xE0002000) -- CPU_ReadMem(4 bytes @ 0xE000EDFC) -- CPU_ReadMem(4 bytes @ 0xE0001000) (0017ms, 0217ms total)
T4C78 000:293 JLINK_Halt()  returns 0x00 (0000ms, 0217ms total)
T4C78 000:293 JLINK_IsHalted()  returns TRUE (0000ms, 0217ms total)
T4C78 000:293 JLINK_ReadMemU32(0xE000EDF0, 0x0001 Items, ...) -- CPU_ReadMem(4 bytes @ 0xE000EDF0) - Data: 03 00 03 00  returns 0x01 (0000ms, 0217ms total)
T4C78 000:293 JLINK_WriteU32(0xE000EDF0, 0xA05F0003) -- CPU_WriteMem(4 bytes @ 0xE000EDF0)  returns 0x00 (0001ms, 0218ms total)
T4C78 000:294 JLINK_WriteU32(0xE000EDFC, 0x01000000) -- CPU_WriteMem(4 bytes @ 0xE000EDFC)  returns 0x00 (0000ms, 0218ms total)
T4C78 000:310 JLINK_GetHWStatus(...)  returns 0x00 (0000ms, 0219ms total)
T4C78 000:323 JLINK_GetNumBPUnits(Type = 0xFFFFFF00)  returns 0x06 (0000ms, 0219ms total)
T4C78 000:323 JLINK_GetNumBPUnits(Type = 0xF0)  returns 0x2000 (0000ms, 0219ms total)
T4C78 000:323 JLINK_GetNumWPUnits()  returns 0x04 (0000ms, 0219ms total)
T4C78 000:335 JLINK_GetSpeed()  returns 0xFA0 (0000ms, 0219ms total)
T4C78 000:342 JLINK_ReadMemU32(0xE000E004, 0x0001 Items, ...) -- CPU_ReadMem(4 bytes @ 0xE000E004) - Data: 01 00 00 00  returns 0x01 (0001ms, 0220ms total)
T4C78 000:343 JLINK_ReadMemU32(0xE000E004, 0x0001 Items, ...) -- CPU_ReadMem(4 bytes @ 0xE000E004) - Data: 01 00 00 00  returns 0x01 (0000ms, 0220ms total)
T4C78 000:343 JLINK_WriteMem(0xE0001000, 0x001C Bytes, ...) - Data: 01 00 00 00 00 00 00 00 00 00 00 00 00 00 00 00 ... -- CPU_WriteMem(28 bytes @ 0xE0001000)  returns 0x1C (0001ms, 0221ms total)
T4C78 000:344 JLINK_ReadMem (0xE0001000, 0x001C Bytes, ...) -- CPU_ReadMem(28 bytes @ 0xE0001000) - Data: 01 00 00 40 00 00 00 00 00 00 00 00 00 00 00 00 ...  returns 0x00 (0001ms, 0222ms total)
T4C78 000:345 JLINK_Halt()  returns 0x00 (0000ms, 0222ms total)
T4C78 000:345 JLINK_IsHalted()  returns TRUE (0000ms, 0222ms total)
T4C78 000:351 JLINK_WriteMem(0x20000000, 0x0164 Bytes, ...) - Data: 00 BE 0A E0 0D 78 2D 06 68 40 08 24 40 00 00 D3 ... -- CPU_WriteMem(356 bytes @ 0x20000000)  returns 0x164 (0004ms, 0226ms total)
T4C78 000:355 JLINK_WriteReg(R0, 0x08000000)  returns 0x00 (0000ms, 0226ms total)
T4C78 000:355 JLINK_WriteReg(R1, 0x007A1200)  returns 0x00 (0000ms, 0226ms total)
T4C78 000:355 JLINK_WriteReg(R2, 0x00000001)  returns 0x00 (0000ms, 0226ms total)
T4C78 000:355 JLINK_WriteReg(R3, 0x00000000)  returns 0x00 (0000ms, 0226ms total)
T4C78 000:355 JLINK_WriteReg(R4, 0x00000000)  returns 0x00 (0000ms, 0226ms total)
T4C78 000:355 JLINK_WriteReg(R5, 0x00000000)  returns 0x00 (0000ms, 0226ms total)
T4C78 000:356 JLINK_WriteReg(R6, 0x00000000)  returns 0x00 (0000ms, 0227ms total)
T4C78 000:356 JLINK_WriteReg(R7, 0x00000000)  returns 0x00 (0000ms, 0227ms total)
T4C78 000:356 JLINK_WriteReg(R8, 0x00000000)  returns 0x00 (0000ms, 0227ms total)
T4C78 000:356 JLINK_WriteReg(R9, 0x20000160)  returns 0x00 (0000ms, 0227ms total)
T4C78 000:356 JLINK_WriteReg(R10, 0x00000000)  returns 0x00 (0000ms, 0227ms total)
T4C78 000:356 JLINK_WriteReg(R11, 0x00000000)  returns 0x00 (0000ms, 0227ms total)
T4C78 000:356 JLINK_WriteReg(R12, 0x00000000)  returns 0x00 (0000ms, 0227ms total)
T4C78 000:356 JLINK_WriteReg(R13 (SP), 0x20001000)  returns 0x00 (0000ms, 0227ms total)
T4C78 000:356 JLINK_WriteReg(R14, 0x20000001)  returns 0x00 (0000ms, 0227ms total)
T4C78 000:356 JLINK_WriteReg(R15 (PC), 0x20000038)  returns 0x00 (0000ms, 0227ms total)
T4C78 000:356 JLINK_WriteReg(XPSR, 0x01000000)  returns 0x00 (0000ms, 0227ms total)
T4C78 000:356 JLINK_WriteReg(MSP, 0x20001000)  returns 0x00 (0000ms, 0227ms total)
T4C78 000:356 JLINK_WriteReg(PSP, 0x20001000)  returns 0x00 (0000ms, 0227ms total)
T4C78 000:356 JLINK_WriteReg(CFBP, 0x00000000)  returns 0x00 (0000ms, 0227ms total)
T4C78 000:356 JLINK_SetBPEx(Addr = 0x20000000, Type = 0xFFFFFFF2) -- CPU_ReadMem(2 bytes @ 0x20000000)  returns 0x00000001 (0001ms, 0228ms total)
T4C78 000:357 JLINK_Go() -- CPU_WriteMem(2 bytes @ 0x20000000) -- CPU_ReadMem(4 bytes @ 0xE0001000) -- CPU_WriteMem(4 bytes @ 0xE0002008) -- CPU_WriteMem(4 bytes @ 0xE000200C) -- CPU_WriteMem(4 bytes @ 0xE0002010) -- CPU_WriteMem(4 bytes @ 0xE0002014) -- CPU_WriteMem(4 bytes @ 0xE0002018) -- CPU_WriteMem(4 bytes @ 0xE000201C) -- CPU_WriteMem(4 bytes @ 0xE0001004) (0006ms, 0234ms total)
T4C78 000:363 JLINK_IsHalted() -- CPU_ReadMem(2 bytes @ 0x20000000)  returns TRUE (0004ms, 0238ms total)
T4C78 000:367 JLINK_ReadReg(R15 (PC))  returns 0x20000000 (0000ms, 0234ms total)
T4C78 000:367 JLINK_ClrBPEx(BPHandle = 0x00000001)  returns 0x00 (0000ms, 0234ms total)
T4C78 000:367 JLINK_ReadReg(R0)  returns 0x00000000 (0000ms, 0234ms total)
T4C78 000:367 JLINK_WriteReg(R0, 0x08000000)  returns 0x00 (0000ms, 0234ms total)
T4C78 000:368 JLINK_WriteReg(R1, 0x007A1200)  returns 0x00 (0000ms, 0235ms total)
T4C78 000:368 JLINK_WriteReg(R2, 0x00000001)  returns 0x00 (0000ms, 0235ms total)
T4C78 000:368 JLINK_WriteReg(R3, 0x00000000)  returns 0x00 (0000ms, 0235ms total)
T4C78 000:368 JLINK_WriteReg(R4, 0x00000000)  returns 0x00 (0000ms, 0235ms total)
T4C78 000:368 JLINK_WriteReg(R5, 0x00000000)  returns 0x00 (0000ms, 0235ms total)
T4C78 000:368 JLINK_WriteReg(R6, 0x00000000)  returns 0x00 (0000ms, 0235ms total)
T4C78 000:368 JLINK_WriteReg(R7, 0x00000000)  returns 0x00 (0000ms, 0235ms total)
T4C78 000:368 JLINK_WriteReg(R8, 0x00000000)  returns 0x00 (0000ms, 0235ms total)
T4C78 000:368 JLINK_WriteReg(R9, 0x20000160)  returns 0x00 (0000ms, 0235ms total)
T4C78 000:368 JLINK_WriteReg(R10, 0x00000000)  returns 0x00 (0000ms, 0235ms total)
T4C78 000:368 JLINK_WriteReg(R11, 0x00000000)  returns 0x00 (0000ms, 0235ms total)
T4C78 000:368 JLINK_WriteReg(R12, 0x00000000)  returns 0x00 (0000ms, 0235ms total)
T4C78 000:368 JLINK_WriteReg(R13 (SP), 0x20001000)  returns 0x00 (0000ms, 0235ms total)
T4C78 000:368 JLINK_WriteReg(R14, 0x20000001)  returns 0x00 (0000ms, 0235ms total)
T4C78 000:368 JLINK_WriteReg(R15 (PC), 0x2000007C)  returns 0x00 (0000ms, 0235ms total)
T4C78 000:368 JLINK_WriteReg(XPSR, 0x01000000)  returns 0x00 (0000ms, 0235ms total)
T4C78 000:368 JLINK_WriteReg(MSP, 0x20001000)  returns 0x00 (0000ms, 0235ms total)
T4C78 000:368 JLINK_WriteReg(PSP, 0x20001000)  returns 0x00 (0000ms, 0235ms total)
T4C78 000:368 JLINK_WriteReg(CFBP, 0x00000000)  returns 0x00 (0000ms, 0235ms total)
T4C78 000:368 JLINK_SetBPEx(Addr = 0x20000000, Type = 0xFFFFFFF2)  returns 0x00000002 (0000ms, 0235ms total)
T4C78 000:368 JLINK_Go() -- CPU_ReadMem(4 bytes @ 0xE0001000) (0002ms, 0237ms total)
T4C78 000:370 JLINK_IsHalted()  returns FALSE (0001ms, 0238ms total)
T4C78 000:408 JLINK_IsHalted() -- CPU_ReadMem(2 bytes @ 0x20000000)  returns TRUE (0003ms, 0240ms total)
T4C78 000:411 JLINK_ReadReg(R15 (PC))  returns 0x20000000 (0000ms, 0237ms total)
T4C78 000:411 JLINK_ClrBPEx(BPHandle = 0x00000002)  returns 0x00 (0000ms, 0237ms total)
T4C78 000:412 JLINK_ReadReg(R0)  returns 0x00000000 (0000ms, 0238ms total)
T4C78 000:466 JLINK_WriteReg(R0, 0x00000001)  returns 0x00 (0001ms, 0239ms total)
T4C78 000:467 JLINK_WriteReg(R1, 0x007A1200)  returns 0x00 (0000ms, 0239ms total)
T4C78 000:467 JLINK_WriteReg(R2, 0x00000001)  returns 0x00 (0000ms, 0239ms total)
T4C78 000:467 JLINK_WriteReg(R3, 0x00000000)  returns 0x00 (0000ms, 0239ms total)
T4C78 000:467 JLINK_WriteReg(R4, 0x00000000)  returns 0x00 (0000ms, 0239ms total)
T4C78 000:467 JLINK_WriteReg(R5, 0x00000000)  returns 0x00 (0000ms, 0239ms total)
T4C78 000:467 JLINK_WriteReg(R6, 0x00000000)  returns 0x00 (0000ms, 0239ms total)
T4C78 000:467 JLINK_WriteReg(R7, 0x00000000)  returns 0x00 (0000ms, 0239ms total)
T4C78 000:467 JLINK_WriteReg(R8, 0x00000000)  returns 0x00 (0000ms, 0239ms total)
T4C78 000:467 JLINK_WriteReg(R9, 0x20000160)  returns 0x00 (0000ms, 0239ms total)
T4C78 000:467 JLINK_WriteReg(R10, 0x00000000)  returns 0x00 (0000ms, 0239ms total)
T4C78 000:467 JLINK_WriteReg(R11, 0x00000000)  returns 0x00 (0000ms, 0239ms total)
T4C78 000:467 JLINK_WriteReg(R12, 0x00000000)  returns 0x00 (0000ms, 0239ms total)
T4C78 000:467 JLINK_WriteReg(R13 (SP), 0x20001000)  returns 0x00 (0000ms, 0239ms total)
T4C78 000:467 JLINK_WriteReg(R14, 0x20000001)  returns 0x00 (0000ms, 0239ms total)
T4C78 000:467 JLINK_WriteReg(R15 (PC), 0x2000006A)  returns 0x00 (0000ms, 0239ms total)
T4C78 000:467 JLINK_WriteReg(XPSR, 0x01000000)  returns 0x00 (0000ms, 0239ms total)
T4C78 000:467 JLINK_WriteReg(MSP, 0x20001000)  returns 0x00 (0000ms, 0239ms total)
T4C78 000:467 JLINK_WriteReg(PSP, 0x20001000)  returns 0x00 (0000ms, 0239ms total)
T4C78 000:467 JLINK_WriteReg(CFBP, 0x00000000)  returns 0x00 (0001ms, 0240ms total)
T4C78 000:468 JLINK_SetBPEx(Addr = 0x20000000, Type = 0xFFFFFFF2)  returns 0x00000003 (0000ms, 0240ms total)
T4C78 000:468 JLINK_Go() -- CPU_ReadMem(4 bytes @ 0xE0001000) (0002ms, 0242ms total)
T4C78 000:470 JLINK_IsHalted() -- CPU_ReadMem(2 bytes @ 0x20000000)  returns TRUE (0003ms, 0245ms total)
T4C78 000:473 JLINK_ReadReg(R15 (PC))  returns 0x20000000 (0000ms, 0242ms total)
T4C78 000:473 JLINK_ClrBPEx(BPHandle = 0x00000003)  returns 0x00 (0000ms, 0242ms total)
T4C78 000:473 JLINK_ReadReg(R0)  returns 0x00000000 (0000ms, 0242ms total)
T4C78 000:484 JLINK_WriteMem(0x20000000, 0x0164 Bytes, ...) - Data: 00 BE 0A E0 0D 78 2D 06 68 40 08 24 40 00 00 D3 ... -- CPU_WriteMem(356 bytes @ 0x20000000)  returns 0x164 (0004ms, 0246ms total)
T4C78 000:488 JLINK_WriteReg(R0, 0x08000000)  returns 0x00 (0000ms, 0246ms total)
T4C78 000:488 JLINK_WriteReg(R1, 0x007A1200)  returns 0x00 (0000ms, 0246ms total)
T4C78 000:488 JLINK_WriteReg(R2, 0x00000002)  returns 0x00 (0000ms, 0246ms total)
T4C78 000:488 JLINK_WriteReg(R3, 0x00000000)  returns 0x00 (0000ms, 0246ms total)
T4C78 000:488 JLINK_WriteReg(R4, 0x00000000)  returns 0x00 (0000ms, 0246ms total)
T4C78 000:488 JLINK_WriteReg(R5, 0x00000000)  returns 0x00 (0000ms, 0246ms total)
T4C78 000:489 JLINK_WriteReg(R6, 0x00000000)  returns 0x00 (0000ms, 0247ms total)
T4C78 000:489 JLINK_WriteReg(R7, 0x00000000)  returns 0x00 (0000ms, 0247ms total)
T4C78 000:489 JLINK_WriteReg(R8, 0x00000000)  returns 0x00 (0000ms, 0247ms total)
T4C78 000:489 JLINK_WriteReg(R9, 0x20000160)  returns 0x00 (0000ms, 0247ms total)
T4C78 000:489 JLINK_WriteReg(R10, 0x00000000)  returns 0x00 (0000ms, 0247ms total)
T4C78 000:489 JLINK_WriteReg(R11, 0x00000000)  returns 0x00 (0000ms, 0247ms total)
T4C78 000:489 JLINK_WriteReg(R12, 0x00000000)  returns 0x00 (0000ms, 0247ms total)
T4C78 000:489 JLINK_WriteReg(R13 (SP), 0x20001000)  returns 0x00 (0000ms, 0247ms total)
T4C78 000:489 JLINK_WriteReg(R14, 0x20000001)  returns 0x00 (0000ms, 0247ms total)
T4C78 000:489 JLINK_WriteReg(R15 (PC), 0x20000038)  returns 0x00 (0000ms, 0247ms total)
T4C78 000:489 JLINK_WriteReg(XPSR, 0x01000000)  returns 0x00 (0000ms, 0247ms total)
T4C78 000:489 JLINK_WriteReg(MSP, 0x20001000)  returns 0x00 (0000ms, 0247ms total)
T4C78 000:489 JLINK_WriteReg(PSP, 0x20001000)  returns 0x00 (0000ms, 0247ms total)
T4C78 000:489 JLINK_WriteReg(CFBP, 0x00000000)  returns 0x00 (0001ms, 0248ms total)
T4C78 000:490 JLINK_SetBPEx(Addr = 0x20000000, Type = 0xFFFFFFF2) -- CPU_ReadMem(2 bytes @ 0x20000000)  returns 0x00000004 (0000ms, 0248ms total)
T4C78 000:490 JLINK_Go() -- CPU_WriteMem(2 bytes @ 0x20000000) -- CPU_ReadMem(4 bytes @ 0xE0001000) (0002ms, 0250ms total)
T4C78 000:492 JLINK_IsHalted() -- CPU_ReadMem(2 bytes @ 0x20000000)  returns TRUE (0003ms, 0253ms total)
T4C78 000:495 JLINK_ReadReg(R15 (PC))  returns 0x20000000 (0000ms, 0250ms total)
T4C78 000:495 JLINK_ClrBPEx(BPHandle = 0x00000004)  returns 0x00 (0000ms, 0250ms total)
T4C78 000:495 JLINK_ReadReg(R0)  returns 0x00000000 (0000ms, 0250ms total)
T4C78 000:496 JLINK_WriteMem(0x20000164, 0x0400 Bytes, ...) - Data: 60 07 00 20 89 01 00 08 E7 1B 00 08 C9 13 00 08 ... -- CPU_WriteMem(1024 bytes @ 0x20000164)  returns 0x400 (0011ms, 0261ms total)
T4C78 000:507 JLINK_WriteReg(R0, 0x08000000)  returns 0x00 (0001ms, 0262ms total)
T4C78 000:508 JLINK_WriteReg(R1, 0x00000400)  returns 0x00 (0000ms, 0262ms total)
T4C78 000:508 JLINK_WriteReg(R2, 0x20000164)  returns 0x00 (0000ms, 0262ms total)
T4C78 000:508 JLINK_WriteReg(R3, 0x00000000)  returns 0x00 (0000ms, 0262ms total)
T4C78 000:508 JLINK_WriteReg(R4, 0x00000000)  returns 0x00 (0000ms, 0262ms total)
T4C78 000:508 JLINK_WriteReg(R5, 0x00000000)  returns 0x00 (0000ms, 0262ms total)
T4C78 000:508 JLINK_WriteReg(R6, 0x00000000)  returns 0x00 (0000ms, 0262ms total)
T4C78 000:508 JLINK_WriteReg(R7, 0x00000000)  returns 0x00 (0000ms, 0262ms total)
T4C78 000:508 JLINK_WriteReg(R8, 0x00000000)  returns 0x00 (0000ms, 0262ms total)
T4C78 000:508 JLINK_WriteReg(R9, 0x20000160)  returns 0x00 (0000ms, 0262ms total)
T4C78 000:508 JLINK_WriteReg(R10, 0x00000000)  returns 0x00 (0000ms, 0262ms total)
T4C78 000:508 JLINK_WriteReg(R11, 0x00000000)  returns 0x00 (0000ms, 0262ms total)
T4C78 000:508 JLINK_WriteReg(R12, 0x00000000)  returns 0x00 (0000ms, 0262ms total)
T4C78 000:508 JLINK_WriteReg(R13 (SP), 0x20001000)  returns 0x00 (0000ms, 0262ms total)
T4C78 000:508 JLINK_WriteReg(R14, 0x20000001)  returns 0x00 (0000ms, 0262ms total)
T4C78 000:508 JLINK_WriteReg(R15 (PC), 0x200000F4)  returns 0x00 (0000ms, 0262ms total)
T4C78 000:508 JLINK_WriteReg(XPSR, 0x01000000)  returns 0x00 (0001ms, 0263ms total)
T4C78 000:509 JLINK_WriteReg(MSP, 0x20001000)  returns 0x00 (0000ms, 0263ms total)
T4C78 000:509 JLINK_WriteReg(PSP, 0x20001000)  returns 0x00 (0000ms, 0263ms total)
T4C78 000:509 JLINK_WriteReg(CFBP, 0x00000000)  returns 0x00 (0000ms, 0263ms total)
T4C78 000:509 JLINK_SetBPEx(Addr = 0x20000000, Type = 0xFFFFFFF2)  returns 0x00000005 (0000ms, 0263ms total)
T4C78 000:509 JLINK_Go() -- CPU_ReadMem(4 bytes @ 0xE0001000) (0002ms, 0265ms total)
T4C78 000:511 JLINK_IsHalted()  returns FALSE (0001ms, 0266ms total)
T4C78 000:523 JLINK_IsHalted()  returns FALSE (0000ms, 0265ms total)
T4C78 000:525 JLINK_IsHalted()  returns FALSE (0000ms, 0265ms total)
T4C78 000:527 JLINK_IsHalted()  returns FALSE (0000ms, 0265ms total)
T4C78 000:529 JLINK_IsHalted()  returns FALSE (0000ms, 0265ms total)
T4C78 000:531 JLINK_IsHalted()  returns FALSE (0000ms, 0265ms total)
T4C78 000:533 JLINK_IsHalted() -- CPU_ReadMem(2 bytes @ 0x20000000)  returns TRUE (0003ms, 0268ms total)
T4C78 000:536 JLINK_ReadReg(R15 (PC))  returns 0x20000000 (0000ms, 0268ms total)
T4C78 000:536 JLINK_ClrBPEx(BPHandle = 0x00000005)  returns 0x00 (0000ms, 0268ms total)
T4C78 000:536 JLINK_ReadReg(R0)  returns 0x00000000 (0000ms, 0268ms total)
T4C78 000:537 JLINK_WriteMem(0x20000164, 0x0400 Bytes, ...) - Data: 4F F0 03 08 01 E0 4F F0 04 08 08 FA 06 F8 48 EA ... -- CPU_WriteMem(1024 bytes @ 0x20000164)  returns 0x400 (0011ms, 0279ms total)
T4C78 000:549 JLINK_WriteReg(R0, 0x08000400)  returns 0x00 (0000ms, 0279ms total)
T4C78 000:549 JLINK_WriteReg(R1, 0x00000400)  returns 0x00 (0000ms, 0279ms total)
T4C78 000:549 JLINK_WriteReg(R2, 0x20000164)  returns 0x00 (0000ms, 0279ms total)
T4C78 000:549 JLINK_WriteReg(R3, 0x00000000)  returns 0x00 (0000ms, 0279ms total)
T4C78 000:549 JLINK_WriteReg(R4, 0x00000000)  returns 0x00 (0000ms, 0279ms total)
T4C78 000:549 JLINK_WriteReg(R5, 0x00000000)  returns 0x00 (0000ms, 0279ms total)
T4C78 000:549 JLINK_WriteReg(R6, 0x00000000)  returns 0x00 (0000ms, 0279ms total)
T4C78 000:549 JLINK_WriteReg(R7, 0x00000000)  returns 0x00 (0000ms, 0279ms total)
T4C78 000:549 JLINK_WriteReg(R8, 0x00000000)  returns 0x00 (0000ms, 0279ms total)
T4C78 000:549 JLINK_WriteReg(R9, 0x20000160)  returns 0x00 (0000ms, 0279ms total)
T4C78 000:549 JLINK_WriteReg(R10, 0x00000000)  returns 0x00 (0000ms, 0279ms total)
T4C78 000:549 JLINK_WriteReg(R11, 0x00000000)  returns 0x00 (0000ms, 0279ms total)
T4C78 000:549 JLINK_WriteReg(R12, 0x00000000)  returns 0x00 (0001ms, 0280ms total)
T4C78 000:550 JLINK_WriteReg(R13 (SP), 0x20001000)  returns 0x00 (0000ms, 0280ms total)
T4C78 000:550 JLINK_WriteReg(R14, 0x20000001)  returns 0x00 (0000ms, 0280ms total)
T4C78 000:550 JLINK_WriteReg(R15 (PC), 0x200000F4)  returns 0x00 (0000ms, 0280ms total)
T4C78 000:550 JLINK_WriteReg(XPSR, 0x01000000)  returns 0x00 (0000ms, 0280ms total)
T4C78 000:550 JLINK_WriteReg(MSP, 0x20001000)  returns 0x00 (0000ms, 0280ms total)
T4C78 000:550 JLINK_WriteReg(PSP, 0x20001000)  returns 0x00 (0000ms, 0280ms total)
T4C78 000:550 JLINK_WriteReg(CFBP, 0x00000000)  returns 0x00 (0000ms, 0280ms total)
T4C78 000:550 JLINK_SetBPEx(Addr = 0x20000000, Type = 0xFFFFFFF2)  returns 0x00000006 (0000ms, 0280ms total)
T4C78 000:550 JLINK_Go() -- CPU_ReadMem(4 bytes @ 0xE0001000) (0001ms, 0281ms total)
T4C78 000:551 JLINK_IsHalted()  returns FALSE (0001ms, 0282ms total)
T4C78 000:554 JLINK_IsHalted()  returns FALSE (0000ms, 0281ms total)
T4C78 000:556 JLINK_IsHalted()  returns FALSE (0000ms, 0281ms total)
T4C78 000:558 JLINK_IsHalted()  returns FALSE (0000ms, 0281ms total)
T4C78 000:560 JLINK_IsHalted()  returns FALSE (0000ms, 0281ms total)
T4C78 000:565 JLINK_IsHalted()  returns FALSE (0000ms, 0281ms total)
T4C78 000:567 JLINK_IsHalted()  returns FALSE (0000ms, 0281ms total)
T4C78 000:569 JLINK_IsHalted()  returns FALSE (0000ms, 0281ms total)
T4C78 000:571 JLINK_IsHalted()  returns FALSE (0000ms, 0281ms total)
T4C78 000:573 JLINK_IsHalted() -- CPU_ReadMem(2 bytes @ 0x20000000)  returns TRUE (0004ms, 0285ms total)
T4C78 000:577 JLINK_ReadReg(R15 (PC))  returns 0x20000000 (0000ms, 0281ms total)
T4C78 000:577 JLINK_ClrBPEx(BPHandle = 0x00000006)  returns 0x00 (0000ms, 0281ms total)
T4C78 000:577 JLINK_ReadReg(R0)  returns 0x00000000 (0000ms, 0281ms total)
T4C78 000:578 JLINK_WriteMem(0x20000164, 0x0400 Bytes, ...) - Data: 01 20 BD E8 F8 8F 20 68 00 69 61 6A 08 70 60 6A ... -- CPU_WriteMem(1024 bytes @ 0x20000164)  returns 0x400 (0010ms, 0291ms total)
T4C78 000:588 JLINK_WriteReg(R0, 0x08000800)  returns 0x00 (0000ms, 0291ms total)
T4C78 000:588 JLINK_WriteReg(R1, 0x00000400)  returns 0x00 (0000ms, 0291ms total)
T4C78 000:588 JLINK_WriteReg(R2, 0x20000164)  returns 0x00 (0001ms, 0292ms total)
T4C78 000:589 JLINK_WriteReg(R3, 0x00000000)  returns 0x00 (0000ms, 0292ms total)
T4C78 000:589 JLINK_WriteReg(R4, 0x00000000)  returns 0x00 (0000ms, 0292ms total)
T4C78 000:589 JLINK_WriteReg(R5, 0x00000000)  returns 0x00 (0000ms, 0292ms total)
T4C78 000:589 JLINK_WriteReg(R6, 0x00000000)  returns 0x00 (0000ms, 0292ms total)
T4C78 000:589 JLINK_WriteReg(R7, 0x00000000)  returns 0x00 (0000ms, 0292ms total)
T4C78 000:589 JLINK_WriteReg(R8, 0x00000000)  returns 0x00 (0000ms, 0292ms total)
T4C78 000:589 JLINK_WriteReg(R9, 0x20000160)  returns 0x00 (0000ms, 0292ms total)
T4C78 000:589 JLINK_WriteReg(R10, 0x00000000)  returns 0x00 (0000ms, 0292ms total)
T4C78 000:589 JLINK_WriteReg(R11, 0x00000000)  returns 0x00 (0000ms, 0292ms total)
T4C78 000:589 JLINK_WriteReg(R12, 0x00000000)  returns 0x00 (0000ms, 0292ms total)
T4C78 000:589 JLINK_WriteReg(R13 (SP), 0x20001000)  returns 0x00 (0000ms, 0292ms total)
T4C78 000:589 JLINK_WriteReg(R14, 0x20000001)  returns 0x00 (0000ms, 0292ms total)
T4C78 000:589 JLINK_WriteReg(R15 (PC), 0x200000F4)  returns 0x00 (0001ms, 0293ms total)
T4C78 000:590 JLINK_WriteReg(XPSR, 0x01000000)  returns 0x00 (0000ms, 0293ms total)
T4C78 000:590 JLINK_WriteReg(MSP, 0x20001000)  returns 0x00 (0000ms, 0293ms total)
T4C78 000:590 JLINK_WriteReg(PSP, 0x20001000)  returns 0x00 (0000ms, 0293ms total)
T4C78 000:590 JLINK_WriteReg(CFBP, 0x00000000)  returns 0x00 (0000ms, 0293ms total)
T4C78 000:590 JLINK_SetBPEx(Addr = 0x20000000, Type = 0xFFFFFFF2)  returns 0x00000007 (0000ms, 0293ms total)
T4C78 000:590 JLINK_Go() -- CPU_ReadMem(4 bytes @ 0xE0001000) (0003ms, 0296ms total)
T4C78 000:593 JLINK_IsHalted()  returns FALSE (0000ms, 0296ms total)
T4C78 000:595 JLINK_IsHalted()  returns FALSE (0000ms, 0296ms total)
T4C78 000:597 JLINK_IsHalted()  returns FALSE (0000ms, 0296ms total)
T4C78 000:599 JLINK_IsHalted()  returns FALSE (0000ms, 0296ms total)
T4C78 000:601 JLINK_IsHalted()  returns FALSE (0000ms, 0296ms total)
T4C78 000:603 JLINK_IsHalted()  returns FALSE (0000ms, 0296ms total)
T4C78 000:605 JLINK_IsHalted()  returns FALSE (0000ms, 0296ms total)
T4C78 000:607 JLINK_IsHalted()  returns FALSE (0000ms, 0296ms total)
T4C78 000:609 JLINK_IsHalted()  returns FALSE (0000ms, 0296ms total)
T4C78 000:611 JLINK_IsHalted()  returns FALSE (0000ms, 0296ms total)
T4C78 000:613 JLINK_IsHalted()  returns FALSE (0000ms, 0296ms total)
T4C78 000:615 JLINK_IsHalted() -- CPU_ReadMem(2 bytes @ 0x20000000)  returns TRUE (0003ms, 0299ms total)
T4C78 000:618 JLINK_ReadReg(R15 (PC))  returns 0x20000000 (0000ms, 0296ms total)
T4C78 000:618 JLINK_ClrBPEx(BPHandle = 0x00000007)  returns 0x00 (0000ms, 0296ms total)
T4C78 000:618 JLINK_ReadReg(R0)  returns 0x00000000 (0000ms, 0296ms total)
T4C78 000:619 JLINK_WriteMem(0x20000164, 0x0400 Bytes, ...) - Data: 06 D5 60 68 29 69 20 F4 60 50 40 EA C1 00 60 60 ... -- CPU_WriteMem(1024 bytes @ 0x20000164)  returns 0x400 (0010ms, 0306ms total)
T4C78 000:629 JLINK_WriteReg(R0, 0x08000C00)  returns 0x00 (0000ms, 0306ms total)
T4C78 000:629 JLINK_WriteReg(R1, 0x00000400)  returns 0x00 (0000ms, 0306ms total)
T4C78 000:629 JLINK_WriteReg(R2, 0x20000164)  returns 0x00 (0000ms, 0306ms total)
T4C78 000:629 JLINK_WriteReg(R3, 0x00000000)  returns 0x00 (0000ms, 0306ms total)
T4C78 000:629 JLINK_WriteReg(R4, 0x00000000)  returns 0x00 (0000ms, 0306ms total)
T4C78 000:629 JLINK_WriteReg(R5, 0x00000000)  returns 0x00 (0002ms, 0308ms total)
T4C78 000:631 JLINK_WriteReg(R6, 0x00000000)  returns 0x00 (0000ms, 0308ms total)
T4C78 000:631 JLINK_WriteReg(R7, 0x00000000)  returns 0x00 (0000ms, 0308ms total)
T4C78 000:631 JLINK_WriteReg(R8, 0x00000000)  returns 0x00 (0000ms, 0308ms total)
T4C78 000:631 JLINK_WriteReg(R9, 0x20000160)  returns 0x00 (0000ms, 0308ms total)
T4C78 000:631 JLINK_WriteReg(R10, 0x00000000)  returns 0x00 (0000ms, 0308ms total)
T4C78 000:631 JLINK_WriteReg(R11, 0x00000000)  returns 0x00 (0000ms, 0308ms total)
T4C78 000:631 JLINK_WriteReg(R12, 0x00000000)  returns 0x00 (0000ms, 0308ms total)
T4C78 000:631 JLINK_WriteReg(R13 (SP), 0x20001000)  returns 0x00 (0000ms, 0308ms total)
T4C78 000:631 JLINK_WriteReg(R14, 0x20000001)  returns 0x00 (0000ms, 0308ms total)
T4C78 000:631 JLINK_WriteReg(R15 (PC), 0x200000F4)  returns 0x00 (0000ms, 0308ms total)
T4C78 000:631 JLINK_WriteReg(XPSR, 0x01000000)  returns 0x00 (0000ms, 0308ms total)
T4C78 000:631 JLINK_WriteReg(MSP, 0x20001000)  returns 0x00 (0000ms, 0308ms total)
T4C78 000:631 JLINK_WriteReg(PSP, 0x20001000)  returns 0x00 (0000ms, 0308ms total)
T4C78 000:631 JLINK_WriteReg(CFBP, 0x00000000)  returns 0x00 (0001ms, 0309ms total)
T4C78 000:632 JLINK_SetBPEx(Addr = 0x20000000, Type = 0xFFFFFFF2)  returns 0x00000008 (0000ms, 0309ms total)
T4C78 000:632 JLINK_Go() -- CPU_ReadMem(4 bytes @ 0xE0001000) (0002ms, 0311ms total)
T4C78 000:634 JLINK_IsHalted()  returns FALSE (0000ms, 0311ms total)
T4C78 000:638 JLINK_IsHalted()  returns FALSE (0000ms, 0311ms total)
T4C78 000:640 JLINK_IsHalted()  returns FALSE (0000ms, 0311ms total)
T4C78 000:643 JLINK_IsHalted()  returns FALSE (0000ms, 0311ms total)
T4C78 000:645 JLINK_IsHalted()  returns FALSE (0000ms, 0311ms total)
T4C78 000:647 JLINK_IsHalted()  returns FALSE (0000ms, 0311ms total)
T4C78 000:649 JLINK_IsHalted()  returns FALSE (0000ms, 0311ms total)
T4C78 000:651 JLINK_IsHalted()  returns FALSE (0000ms, 0311ms total)
T4C78 000:653 JLINK_IsHalted()  returns FALSE (0000ms, 0311ms total)
T4C78 000:656 JLINK_IsHalted() -- CPU_ReadMem(2 bytes @ 0x20000000)  returns TRUE (0003ms, 0314ms total)
T4C78 000:659 JLINK_ReadReg(R15 (PC))  returns 0x20000000 (0000ms, 0311ms total)
T4C78 000:659 JLINK_ClrBPEx(BPHandle = 0x00000008)  returns 0x00 (0000ms, 0311ms total)
T4C78 000:659 JLINK_ReadReg(R0)  returns 0x00000000 (0000ms, 0311ms total)
T4C78 000:661 JLINK_WriteMem(0x20000164, 0x0400 Bytes, ...) - Data: 26 D0 01 24 80 F8 3C 40 02 22 80 F8 3D 20 03 68 ... -- CPU_WriteMem(1024 bytes @ 0x20000164)  returns 0x400 (0011ms, 0322ms total)
T4C78 000:672 JLINK_WriteReg(R0, 0x08001000)  returns 0x00 (0000ms, 0322ms total)
T4C78 000:672 JLINK_WriteReg(R1, 0x00000400)  returns 0x00 (0000ms, 0322ms total)
T4C78 000:672 JLINK_WriteReg(R2, 0x20000164)  returns 0x00 (0000ms, 0322ms total)
T4C78 000:672 JLINK_WriteReg(R3, 0x00000000)  returns 0x00 (0000ms, 0322ms total)
T4C78 000:672 JLINK_WriteReg(R4, 0x00000000)  returns 0x00 (0000ms, 0322ms total)
T4C78 000:672 JLINK_WriteReg(R5, 0x00000000)  returns 0x00 (0000ms, 0322ms total)
T4C78 000:672 JLINK_WriteReg(R6, 0x00000000)  returns 0x00 (0001ms, 0323ms total)
T4C78 000:673 JLINK_WriteReg(R7, 0x00000000)  returns 0x00 (0000ms, 0323ms total)
T4C78 000:673 JLINK_WriteReg(R8, 0x00000000)  returns 0x00 (0000ms, 0323ms total)
T4C78 000:673 JLINK_WriteReg(R9, 0x20000160)  returns 0x00 (0000ms, 0323ms total)
T4C78 000:673 JLINK_WriteReg(R10, 0x00000000)  returns 0x00 (0000ms, 0323ms total)
T4C78 000:673 JLINK_WriteReg(R11, 0x00000000)  returns 0x00 (0000ms, 0323ms total)
T4C78 000:673 JLINK_WriteReg(R12, 0x00000000)  returns 0x00 (0000ms, 0323ms total)
T4C78 000:673 JLINK_WriteReg(R13 (SP), 0x20001000)  returns 0x00 (0000ms, 0323ms total)
T4C78 000:673 JLINK_WriteReg(R14, 0x20000001)  returns 0x00 (0000ms, 0323ms total)
T4C78 000:673 JLINK_WriteReg(R15 (PC), 0x200000F4)  returns 0x00 (0000ms, 0323ms total)
T4C78 000:673 JLINK_WriteReg(XPSR, 0x01000000)  returns 0x00 (0000ms, 0323ms total)
T4C78 000:673 JLINK_WriteReg(MSP, 0x20001000)  returns 0x00 (0000ms, 0323ms total)
T4C78 000:673 JLINK_WriteReg(PSP, 0x20001000)  returns 0x00 (0000ms, 0323ms total)
T4C78 000:673 JLINK_WriteReg(CFBP, 0x00000000)  returns 0x00 (0000ms, 0323ms total)
T4C78 000:673 JLINK_SetBPEx(Addr = 0x20000000, Type = 0xFFFFFFF2)  returns 0x00000009 (0000ms, 0323ms total)
T4C78 000:673 JLINK_Go() -- CPU_ReadMem(4 bytes @ 0xE0001000) (0002ms, 0325ms total)
T4C78 000:675 JLINK_IsHalted()  returns FALSE (0001ms, 0326ms total)
T4C78 000:681 JLINK_IsHalted()  returns FALSE (0001ms, 0326ms total)
T4C78 000:684 JLINK_IsHalted()  returns FALSE (0000ms, 0325ms total)
T4C78 000:686 JLINK_IsHalted()  returns FALSE (0000ms, 0325ms total)
T4C78 000:688 JLINK_IsHalted()  returns FALSE (0000ms, 0325ms total)
T4C78 000:690 JLINK_IsHalted()  returns FALSE (0000ms, 0325ms total)
T4C78 000:691 JLINK_IsHalted()  returns FALSE (0000ms, 0325ms total)
T4C78 000:693 JLINK_IsHalted()  returns FALSE (0000ms, 0325ms total)
T4C78 000:695 JLINK_IsHalted()  returns FALSE (0000ms, 0325ms total)
T4C78 000:697 JLINK_IsHalted() -- CPU_ReadMem(2 bytes @ 0x20000000)  returns TRUE (0002ms, 0327ms total)
T4C78 000:699 JLINK_ReadReg(R15 (PC))  returns 0x20000000 (0000ms, 0325ms total)
T4C78 000:699 JLINK_ClrBPEx(BPHandle = 0x00000009)  returns 0x00 (0002ms, 0327ms total)
T4C78 000:701 JLINK_ReadReg(R0)  returns 0x00000000 (0000ms, 0327ms total)
T4C78 000:702 JLINK_WriteMem(0x20000164, 0x0400 Bytes, ...) - Data: 1E 46 93 46 0D 46 21 68 0A 68 42 F4 80 62 0A 60 ... -- CPU_WriteMem(1024 bytes @ 0x20000164)  returns 0x400 (0011ms, 0338ms total)
T4C78 000:713 JLINK_WriteReg(R0, 0x08001400)  returns 0x00 (0000ms, 0338ms total)
T4C78 000:713 JLINK_WriteReg(R1, 0x00000400)  returns 0x00 (0000ms, 0338ms total)
T4C78 000:713 JLINK_WriteReg(R2, 0x20000164)  returns 0x00 (0000ms, 0338ms total)
T4C78 000:713 JLINK_WriteReg(R3, 0x00000000)  returns 0x00 (0000ms, 0338ms total)
T4C78 000:713 JLINK_WriteReg(R4, 0x00000000)  returns 0x00 (0000ms, 0338ms total)
T4C78 000:713 JLINK_WriteReg(R5, 0x00000000)  returns 0x00 (0000ms, 0338ms total)
T4C78 000:713 JLINK_WriteReg(R6, 0x00000000)  returns 0x00 (0001ms, 0339ms total)
T4C78 000:714 JLINK_WriteReg(R7, 0x00000000)  returns 0x00 (0000ms, 0339ms total)
T4C78 000:714 JLINK_WriteReg(R8, 0x00000000)  returns 0x00 (0000ms, 0339ms total)
T4C78 000:714 JLINK_WriteReg(R9, 0x20000160)  returns 0x00 (0000ms, 0339ms total)
T4C78 000:714 JLINK_WriteReg(R10, 0x00000000)  returns 0x00 (0000ms, 0339ms total)
T4C78 000:714 JLINK_WriteReg(R11, 0x00000000)  returns 0x00 (0000ms, 0339ms total)
T4C78 000:714 JLINK_WriteReg(R12, 0x00000000)  returns 0x00 (0000ms, 0339ms total)
T4C78 000:714 JLINK_WriteReg(R13 (SP), 0x20001000)  returns 0x00 (0000ms, 0339ms total)
T4C78 000:714 JLINK_WriteReg(R14, 0x20000001)  returns 0x00 (0000ms, 0339ms total)
T4C78 000:714 JLINK_WriteReg(R15 (PC), 0x200000F4)  returns 0x00 (0000ms, 0339ms total)
T4C78 000:714 JLINK_WriteReg(XPSR, 0x01000000)  returns 0x00 (0000ms, 0339ms total)
T4C78 000:714 JLINK_WriteReg(MSP, 0x20001000)  returns 0x00 (0000ms, 0339ms total)
T4C78 000:714 JLINK_WriteReg(PSP, 0x20001000)  returns 0x00 (0000ms, 0339ms total)
T4C78 000:714 JLINK_WriteReg(CFBP, 0x00000000)  returns 0x00 (0000ms, 0339ms total)
T4C78 000:715 JLINK_SetBPEx(Addr = 0x20000000, Type = 0xFFFFFFF2)  returns 0x0000000A (0000ms, 0340ms total)
T4C78 000:715 JLINK_Go() -- CPU_ReadMem(4 bytes @ 0xE0001000) (0002ms, 0342ms total)
T4C78 000:717 JLINK_IsHalted()  returns FALSE (0000ms, 0342ms total)
T4C78 000:719 JLINK_IsHalted()  returns FALSE (0000ms, 0342ms total)
T4C78 000:721 JLINK_IsHalted()  returns FALSE (0000ms, 0342ms total)
T4C78 000:724 JLINK_IsHalted()  returns FALSE (0000ms, 0342ms total)
T4C78 000:726 JLINK_IsHalted()  returns FALSE (0000ms, 0342ms total)
T4C78 000:728 JLINK_IsHalted()  returns FALSE (0000ms, 0342ms total)
T4C78 000:730 JLINK_IsHalted()  returns FALSE (0000ms, 0342ms total)
T4C78 000:731 JLINK_IsHalted()  returns FALSE (0000ms, 0342ms total)
T4C78 000:733 JLINK_IsHalted()  returns FALSE (0000ms, 0342ms total)
T4C78 000:738 JLINK_IsHalted() -- CPU_ReadMem(2 bytes @ 0x20000000)  returns TRUE (0003ms, 0345ms total)
T4C78 000:741 JLINK_ReadReg(R15 (PC))  returns 0x20000000 (0000ms, 0342ms total)
T4C78 000:741 JLINK_ClrBPEx(BPHandle = 0x0000000A)  returns 0x00 (0000ms, 0342ms total)
T4C78 000:741 JLINK_ReadReg(R0)  returns 0x00000000 (0001ms, 0343ms total)
T4C78 000:742 JLINK_WriteMem(0x20000164, 0x0400 Bytes, ...) - Data: 61 FE 00 21 1B 20 00 F0 5D FE 00 21 BD E8 10 40 ... -- CPU_WriteMem(1024 bytes @ 0x20000164)  returns 0x400 (0011ms, 0354ms total)
T4C78 000:754 JLINK_WriteReg(R0, 0x08001800)  returns 0x00 (0000ms, 0355ms total)
T4C78 000:754 JLINK_WriteReg(R1, 0x00000400)  returns 0x00 (0000ms, 0355ms total)
T4C78 000:754 JLINK_WriteReg(R2, 0x20000164)  returns 0x00 (0000ms, 0355ms total)
T4C78 000:754 JLINK_WriteReg(R3, 0x00000000)  returns 0x00 (0000ms, 0355ms total)
T4C78 000:754 JLINK_WriteReg(R4, 0x00000000)  returns 0x00 (0000ms, 0355ms total)
T4C78 000:754 JLINK_WriteReg(R5, 0x00000000)  returns 0x00 (0000ms, 0355ms total)
T4C78 000:754 JLINK_WriteReg(R6, 0x00000000)  returns 0x00 (0000ms, 0355ms total)
T4C78 000:754 JLINK_WriteReg(R7, 0x00000000)  returns 0x00 (0000ms, 0355ms total)
T4C78 000:754 JLINK_WriteReg(R8, 0x00000000)  returns 0x00 (0000ms, 0355ms total)
T4C78 000:754 JLINK_WriteReg(R9, 0x20000160)  returns 0x00 (0000ms, 0355ms total)
T4C78 000:754 JLINK_WriteReg(R10, 0x00000000)  returns 0x00 (0000ms, 0355ms total)
T4C78 000:754 JLINK_WriteReg(R11, 0x00000000)  returns 0x00 (0001ms, 0356ms total)
T4C78 000:755 JLINK_WriteReg(R12, 0x00000000)  returns 0x00 (0000ms, 0356ms total)
T4C78 000:755 JLINK_WriteReg(R13 (SP), 0x20001000)  returns 0x00 (0000ms, 0356ms total)
T4C78 000:755 JLINK_WriteReg(R14, 0x20000001)  returns 0x00 (0000ms, 0356ms total)
T4C78 000:755 JLINK_WriteReg(R15 (PC), 0x200000F4)  returns 0x00 (0000ms, 0356ms total)
T4C78 000:755 JLINK_WriteReg(XPSR, 0x01000000)  returns 0x00 (0000ms, 0356ms total)
T4C78 000:755 JLINK_WriteReg(MSP, 0x20001000)  returns 0x00 (0000ms, 0356ms total)
T4C78 000:755 JLINK_WriteReg(PSP, 0x20001000)  returns 0x00 (0000ms, 0356ms total)
T4C78 000:755 JLINK_WriteReg(CFBP, 0x00000000)  returns 0x00 (0000ms, 0356ms total)
T4C78 000:755 JLINK_SetBPEx(Addr = 0x20000000, Type = 0xFFFFFFF2)  returns 0x0000000B (0000ms, 0356ms total)
T4C78 000:755 JLINK_Go() -- CPU_ReadMem(4 bytes @ 0xE0001000) (0002ms, 0358ms total)
T4C78 000:757 JLINK_IsHalted()  returns FALSE (0000ms, 0358ms total)
T4C78 000:759 JLINK_IsHalted()  returns FALSE (0000ms, 0358ms total)
T4C78 000:761 JLINK_IsHalted()  returns FALSE (0000ms, 0358ms total)
T4C78 000:762 JLINK_IsHalted()  returns FALSE (0000ms, 0358ms total)
T4C78 000:765 JLINK_IsHalted()  returns FALSE (0000ms, 0358ms total)
T4C78 000:767 JLINK_IsHalted()  returns FALSE (0000ms, 0358ms total)
T4C78 000:769 JLINK_IsHalted()  returns FALSE (0000ms, 0358ms total)
T4C78 000:771 JLINK_IsHalted()  returns FALSE (0000ms, 0358ms total)
T4C78 000:773 JLINK_IsHalted()  returns FALSE (0000ms, 0358ms total)
T4C78 000:775 JLINK_IsHalted()  returns FALSE (0000ms, 0358ms total)
T4C78 000:777 JLINK_IsHalted()  returns FALSE (0000ms, 0358ms total)
T4C78 000:780 JLINK_IsHalted() -- CPU_ReadMem(2 bytes @ 0x20000000)  returns TRUE (0002ms, 0360ms total)
T4C78 000:782 JLINK_ReadReg(R15 (PC))  returns 0x20000000 (0000ms, 0358ms total)
T4C78 000:782 JLINK_ClrBPEx(BPHandle = 0x0000000B)  returns 0x00 (0000ms, 0358ms total)
T4C78 000:782 JLINK_ReadReg(R0)  returns 0x00000000 (0000ms, 0358ms total)
T4C78 000:783 JLINK_WriteMem(0x20000164, 0x0400 Bytes, ...) - Data: FE F7 E2 FA 01 21 08 04 CD E9 00 10 00 24 02 94 ... -- CPU_WriteMem(1024 bytes @ 0x20000164)  returns 0x400 (0012ms, 0370ms total)
T4C78 000:795 JLINK_WriteReg(R0, 0x08001C00)  returns 0x00 (0000ms, 0370ms total)
T4C78 000:795 JLINK_WriteReg(R1, 0x00000400)  returns 0x00 (0000ms, 0370ms total)
T4C78 000:795 JLINK_WriteReg(R2, 0x20000164)  returns 0x00 (0000ms, 0370ms total)
T4C78 000:795 JLINK_WriteReg(R3, 0x00000000)  returns 0x00 (0000ms, 0370ms total)
T4C78 000:795 JLINK_WriteReg(R4, 0x00000000)  returns 0x00 (0000ms, 0370ms total)
T4C78 000:795 JLINK_WriteReg(R5, 0x00000000)  returns 0x00 (0000ms, 0370ms total)
T4C78 000:795 JLINK_WriteReg(R6, 0x00000000)  returns 0x00 (0000ms, 0370ms total)
T4C78 000:795 JLINK_WriteReg(R7, 0x00000000)  returns 0x00 (0000ms, 0370ms total)
T4C78 000:795 JLINK_WriteReg(R8, 0x00000000)  returns 0x00 (0000ms, 0370ms total)
T4C78 000:795 JLINK_WriteReg(R9, 0x20000160)  returns 0x00 (0000ms, 0370ms total)
T4C78 000:795 JLINK_WriteReg(R10, 0x00000000)  returns 0x00 (0000ms, 0370ms total)
T4C78 000:795 JLINK_WriteReg(R11, 0x00000000)  returns 0x00 (0000ms, 0370ms total)
T4C78 000:795 JLINK_WriteReg(R12, 0x00000000)  returns 0x00 (0000ms, 0370ms total)
T4C78 000:795 JLINK_WriteReg(R13 (SP), 0x20001000)  returns 0x00 (0000ms, 0370ms total)
T4C78 000:795 JLINK_WriteReg(R14, 0x20000001)  returns 0x00 (0001ms, 0371ms total)
T4C78 000:796 JLINK_WriteReg(R15 (PC), 0x200000F4)  returns 0x00 (0000ms, 0371ms total)
T4C78 000:796 JLINK_WriteReg(XPSR, 0x01000000)  returns 0x00 (0000ms, 0371ms total)
T4C78 000:796 JLINK_WriteReg(MSP, 0x20001000)  returns 0x00 (0000ms, 0371ms total)
T4C78 000:796 JLINK_WriteReg(PSP, 0x20001000)  returns 0x00 (0000ms, 0371ms total)
T4C78 000:796 JLINK_WriteReg(CFBP, 0x00000000)  returns 0x00 (0000ms, 0371ms total)
T4C78 000:796 JLINK_SetBPEx(Addr = 0x20000000, Type = 0xFFFFFFF2)  returns 0x0000000C (0000ms, 0371ms total)
T4C78 000:796 JLINK_Go() -- CPU_ReadMem(4 bytes @ 0xE0001000) (0002ms, 0373ms total)
T4C78 000:798 JLINK_IsHalted()  returns FALSE (0000ms, 0373ms total)
T4C78 000:803 JLINK_IsHalted()  returns FALSE (0000ms, 0373ms total)
T4C78 000:805 JLINK_IsHalted()  returns FALSE (0000ms, 0373ms total)
T4C78 000:807 JLINK_IsHalted()  returns FALSE (0000ms, 0373ms total)
T4C78 000:809 JLINK_IsHalted()  returns FALSE (0000ms, 0373ms total)
T4C78 000:811 JLINK_IsHalted()  returns FALSE (0000ms, 0373ms total)
T4C78 000:813 JLINK_IsHalted()  returns FALSE (0000ms, 0373ms total)
T4C78 000:815 JLINK_IsHalted()  returns FALSE (0000ms, 0373ms total)
T4C78 000:817 JLINK_IsHalted()  returns FALSE (0000ms, 0373ms total)
T4C78 000:819 JLINK_IsHalted() -- CPU_ReadMem(2 bytes @ 0x20000000)  returns TRUE (0003ms, 0376ms total)
T4C78 000:822 JLINK_ReadReg(R15 (PC))  returns 0x20000000 (0000ms, 0373ms total)
T4C78 000:823 JLINK_ClrBPEx(BPHandle = 0x0000000C)  returns 0x00 (0000ms, 0374ms total)
T4C78 000:823 JLINK_ReadReg(R0)  returns 0x00000000 (0000ms, 0374ms total)
T4C78 000:824 JLINK_WriteMem(0x20000164, 0x0400 Bytes, ...) - Data: F8 8F 65 49 65 4F 25 F0 00 45 81 42 33 DD 64 49 ... -- CPU_WriteMem(1024 bytes @ 0x20000164)  returns 0x400 (0010ms, 0384ms total)
T4C78 000:834 JLINK_WriteReg(R0, 0x08002000)  returns 0x00 (0001ms, 0385ms total)
T4C78 000:835 JLINK_WriteReg(R1, 0x00000400)  returns 0x00 (0000ms, 0385ms total)
T4C78 000:835 JLINK_WriteReg(R2, 0x20000164)  returns 0x00 (0000ms, 0385ms total)
T4C78 000:835 JLINK_WriteReg(R3, 0x00000000)  returns 0x00 (0000ms, 0385ms total)
T4C78 000:835 JLINK_WriteReg(R4, 0x00000000)  returns 0x00 (0000ms, 0385ms total)
T4C78 000:835 JLINK_WriteReg(R5, 0x00000000)  returns 0x00 (0000ms, 0385ms total)
T4C78 000:835 JLINK_WriteReg(R6, 0x00000000)  returns 0x00 (0000ms, 0385ms total)
T4C78 000:835 JLINK_WriteReg(R7, 0x00000000)  returns 0x00 (0000ms, 0385ms total)
T4C78 000:835 JLINK_WriteReg(R8, 0x00000000)  returns 0x00 (0000ms, 0385ms total)
T4C78 000:835 JLINK_WriteReg(R9, 0x20000160)  returns 0x00 (0000ms, 0385ms total)
T4C78 000:835 JLINK_WriteReg(R10, 0x00000000)  returns 0x00 (0000ms, 0385ms total)
T4C78 000:835 JLINK_WriteReg(R11, 0x00000000)  returns 0x00 (0000ms, 0385ms total)
T4C78 000:835 JLINK_WriteReg(R12, 0x00000000)  returns 0x00 (0000ms, 0385ms total)
T4C78 000:835 JLINK_WriteReg(R13 (SP), 0x20001000)  returns 0x00 (0001ms, 0386ms total)
T4C78 000:836 JLINK_WriteReg(R14, 0x20000001)  returns 0x00 (0000ms, 0386ms total)
T4C78 000:836 JLINK_WriteReg(R15 (PC), 0x200000F4)  returns 0x00 (0000ms, 0386ms total)
T4C78 000:836 JLINK_WriteReg(XPSR, 0x01000000)  returns 0x00 (0000ms, 0386ms total)
T4C78 000:836 JLINK_WriteReg(MSP, 0x20001000)  returns 0x00 (0000ms, 0386ms total)
T4C78 000:836 JLINK_WriteReg(PSP, 0x20001000)  returns 0x00 (0000ms, 0386ms total)
T4C78 000:836 JLINK_WriteReg(CFBP, 0x00000000)  returns 0x00 (0000ms, 0386ms total)
T4C78 000:836 JLINK_SetBPEx(Addr = 0x20000000, Type = 0xFFFFFFF2)  returns 0x0000000D (0000ms, 0386ms total)
T4C78 000:836 JLINK_Go() -- CPU_ReadMem(4 bytes @ 0xE0001000) (0002ms, 0388ms total)
T4C78 000:838 JLINK_IsHalted()  returns FALSE (0000ms, 0388ms total)
T4C78 000:841 JLINK_IsHalted()  returns FALSE (0000ms, 0388ms total)
T4C78 000:843 JLINK_IsHalted()  returns FALSE (0000ms, 0388ms total)
T4C78 000:849 JLINK_IsHalted()  returns FALSE (0000ms, 0388ms total)
T4C78 000:851 JLINK_IsHalted()  returns FALSE (0000ms, 0388ms total)
T4C78 000:853 JLINK_IsHalted()  returns FALSE (0000ms, 0388ms total)
T4C78 000:855 JLINK_IsHalted()  returns FALSE (0000ms, 0388ms total)
T4C78 000:857 JLINK_IsHalted()  returns FALSE (0000ms, 0388ms total)
T4C78 000:859 JLINK_IsHalted() -- CPU_ReadMem(2 bytes @ 0x20000000)  returns TRUE (0003ms, 0391ms total)
T4C78 000:862 JLINK_ReadReg(R15 (PC))  returns 0x20000000 (0000ms, 0391ms total)
T4C78 000:862 JLINK_ClrBPEx(BPHandle = 0x0000000D)  returns 0x00 (0000ms, 0391ms total)
T4C78 000:862 JLINK_ReadReg(R0)  returns 0x00000000 (0000ms, 0391ms total)
T4C78 000:863 JLINK_WriteMem(0x20000164, 0x0400 Bytes, ...) - Data: 14 A0 03 E0 4D 45 01 DD C4 F8 14 90 8F 42 02 D3 ... -- CPU_WriteMem(1024 bytes @ 0x20000164)  returns 0x400 (0011ms, 0402ms total)
T4C78 000:874 JLINK_WriteReg(R0, 0x08002400)  returns 0x00 (0000ms, 0402ms total)
T4C78 000:874 JLINK_WriteReg(R1, 0x00000400)  returns 0x00 (0000ms, 0402ms total)
T4C78 000:874 JLINK_WriteReg(R2, 0x20000164)  returns 0x00 (0000ms, 0402ms total)
T4C78 000:874 JLINK_WriteReg(R3, 0x00000000)  returns 0x00 (0000ms, 0402ms total)
T4C78 000:874 JLINK_WriteReg(R4, 0x00000000)  returns 0x00 (0001ms, 0403ms total)
T4C78 000:875 JLINK_WriteReg(R5, 0x00000000)  returns 0x00 (0000ms, 0403ms total)
T4C78 000:875 JLINK_WriteReg(R6, 0x00000000)  returns 0x00 (0000ms, 0403ms total)
T4C78 000:875 JLINK_WriteReg(R7, 0x00000000)  returns 0x00 (0000ms, 0403ms total)
T4C78 000:875 JLINK_WriteReg(R8, 0x00000000)  returns 0x00 (0000ms, 0403ms total)
T4C78 000:875 JLINK_WriteReg(R9, 0x20000160)  returns 0x00 (0000ms, 0403ms total)
T4C78 000:875 JLINK_WriteReg(R10, 0x00000000)  returns 0x00 (0000ms, 0403ms total)
T4C78 000:875 JLINK_WriteReg(R11, 0x00000000)  returns 0x00 (0000ms, 0403ms total)
T4C78 000:875 JLINK_WriteReg(R12, 0x00000000)  returns 0x00 (0000ms, 0403ms total)
T4C78 000:875 JLINK_WriteReg(R13 (SP), 0x20001000)  returns 0x00 (0000ms, 0403ms total)
T4C78 000:875 JLINK_WriteReg(R14, 0x20000001)  returns 0x00 (0000ms, 0403ms total)
T4C78 000:875 JLINK_WriteReg(R15 (PC), 0x200000F4)  returns 0x00 (0000ms, 0403ms total)
T4C78 000:875 JLINK_WriteReg(XPSR, 0x01000000)  returns 0x00 (0000ms, 0403ms total)
T4C78 000:875 JLINK_WriteReg(MSP, 0x20001000)  returns 0x00 (0000ms, 0403ms total)
T4C78 000:875 JLINK_WriteReg(PSP, 0x20001000)  returns 0x00 (0000ms, 0403ms total)
T4C78 000:875 JLINK_WriteReg(CFBP, 0x00000000)  returns 0x00 (0000ms, 0403ms total)
T4C78 000:875 JLINK_SetBPEx(Addr = 0x20000000, Type = 0xFFFFFFF2)  returns 0x0000000E (0000ms, 0403ms total)
T4C78 000:875 JLINK_Go() -- CPU_ReadMem(4 bytes @ 0xE0001000) (0003ms, 0406ms total)
T4C78 000:878 JLINK_IsHalted()  returns FALSE (0001ms, 0407ms total)
T4C78 000:883 JLINK_IsHalted()  returns FALSE (0000ms, 0406ms total)
T4C78 000:885 JLINK_IsHalted()  returns FALSE (0000ms, 0406ms total)
T4C78 000:887 JLINK_IsHalted()  returns FALSE (0000ms, 0406ms total)
T4C78 000:889 JLINK_IsHalted()  returns FALSE (0000ms, 0406ms total)
T4C78 000:891 JLINK_IsHalted()  returns FALSE (0000ms, 0406ms total)
T4C78 000:894 JLINK_IsHalted()  returns FALSE (0000ms, 0406ms total)
T4C78 000:896 JLINK_IsHalted()  returns FALSE (0000ms, 0406ms total)
T4C78 000:898 JLINK_IsHalted()  returns FALSE (0000ms, 0406ms total)
T4C78 000:900 JLINK_IsHalted() -- CPU_ReadMem(2 bytes @ 0x20000000)  returns TRUE (0002ms, 0408ms total)
T4C78 000:902 JLINK_ReadReg(R15 (PC))  returns 0x20000000 (0000ms, 0406ms total)
T4C78 000:902 JLINK_ClrBPEx(BPHandle = 0x0000000E)  returns 0x00 (0000ms, 0406ms total)
T4C78 000:902 JLINK_ReadReg(R0)  returns 0x00000000 (0001ms, 0407ms total)
T4C78 000:903 JLINK_WriteMem(0x20000164, 0x0400 Bytes, ...) - Data: 02 86 4F EA D0 20 40 EA 41 50 07 FB 03 66 1E EA ... -- CPU_WriteMem(1024 bytes @ 0x20000164)  returns 0x400 (0012ms, 0419ms total)
T4C78 000:915 JLINK_WriteReg(R0, 0x08002800)  returns 0x00 (0000ms, 0419ms total)
T4C78 000:915 JLINK_WriteReg(R1, 0x00000400)  returns 0x00 (0000ms, 0419ms total)
